Frequency [Hz], |S02| [-], |S12| [-], |S22| [-], |S32| [-], Arg(S02) [-], Arg(S12) [-], Arg(S22) [-], Arg(S32) [-], Delay 2>0 [s], Delay 2>1 [s], Delay 2>2 [s], Delay 2>3 [s], |Z2| [Ohm] , Arg(Z2) [-]
2.000000e+08, 2.654520e-02, 1.077186e-02, 1.024952e-01, 1.019645e+00, 1.471229e+00, -1.052695e+00, 2.745258e+00, -2.012021e-01, 1.609518e-10, 4.887164e-10, 1.574763e-10, 1.775523e-10, 4.137420e+01, 7.980481e-02
2.038000e+08, 2.702257e-02, 1.095734e-02, 1.024139e-01, 1.019533e+00, 1.467386e+00, -1.064363e+00, 2.741498e+00, -2.054413e-01, 1.583672e-10, 4.813224e-10, 1.608484e-10, 1.771041e-10, 4.139310e+01, 8.045327e-02
2.076000e+08, 2.749843e-02, 1.114147e-02, 1.023327e-01, 1.019419e+00, 1.463605e+00, -1.075855e+00, 2.737657e+00, -2.096699e-01, 1.558838e-10, 4.742247e-10, 1.640700e-10, 1.766749e-10, 4.141237e+01, 8.111465e-02
2.114000e+08, 2.797275e-02, 1.132431e-02, 1.022515e-01, 1.019305e+00, 1.459883e+00, -1.087178e+00, 2.733740e+00, -2.138882e-01, 1.534957e-10, 4.674144e-10, 1.671519e-10, 1.762633e-10, 4.143202e+01, 8.178806e-02
2.152000e+08, 2.844547e-02, 1.150593e-02, 1.021701e-01, 1.019189e+00, 1.456218e+00, -1.098338e+00, 2.729749e+00, -2.180967e-01, 1.511975e-10, 4.608824e-10, 1.701038e-10, 1.758681e-10, 4.145204e+01, 8.247265e-02
2.190000e+08, 2.891657e-02, 1.168638e-02, 1.020885e-01, 1.019073e+00, 1.452608e+00, -1.109342e+00, 2.725688e+00, -2.222957e-01, 1.489841e-10, 4.546190e-10, 1.729346e-10, 1.754882e-10, 4.147243e+01, 8.316765e-02
2.228000e+08, 2.938600e-02, 1.186571e-02, 1.020065e-01, 1.018956e+00, 1.449051e+00, -1.120197e+00, 2.721559e+00, -2.264857e-01, 1.468513e-10, 4.486143e-10, 1.756524e-10, 1.751228e-10, 4.149321e+01, 8.387231e-02
2.266000e+08, 2.985372e-02, 1.204398e-02, 1.019241e-01, 1.018838e+00, 1.445544e+00, -1.130908e+00, 2.717365e+00, -2.306669e-01, 1.447949e-10, 4.428582e-10, 1.782650e-10, 1.747709e-10, 4.151437e+01, 8.458593e-02
2.304000e+08, 3.031968e-02, 1.222122e-02, 1.018412e-01, 1.018720e+00, 1.442087e+00, -1.141481e+00, 2.713108e+00, -2.348398e-01, 1.428114e-10, 4.373408e-10, 1.807790e-10, 1.744316e-10, 4.153591e+01, 8.530786e-02
2.342000e+08, 3.078385e-02, 1.239748e-02, 1.017577e-01, 1.018601e+00, 1.438678e+00, -1.151923e+00, 2.708792e+00, -2.390045e-01, 1.408976e-10, 4.320520e-10, 1.832011e-10, 1.741044e-10, 4.155785e+01, 8.603747e-02
2.380000e+08, 3.124619e-02, 1.257281e-02, 1.016735e-01, 1.018482e+00, 1.435313e+00, -1.162239e+00, 2.704418e+00, -2.431615e-01, 1.390504e-10, 4.269821e-10, 1.855370e-10, 1.737884e-10, 4.158017e+01, 8.677418e-02
2.418000e+08, 3.170665e-02, 1.274724e-02, 1.015886e-01, 1.018363e+00, 1.431993e+00, -1.172434e+00, 2.699988e+00, -2.473108e-01, 1.372673e-10, 4.221215e-10, 1.877922e-10, 1.734830e-10, 4.160289e+01, 8.751742e-02
2.456000e+08, 3.216518e-02, 1.292081e-02, 1.015029e-01, 1.018243e+00, 1.428716e+00, -1.182512e+00, 2.695504e+00, -2.514529e-01, 1.355457e-10, 4.174609e-10, 1.899718e-10, 1.731877e-10, 4.162600e+01, 8.826666e-02
2.494000e+08, 3.262176e-02, 1.309355e-02, 1.014164e-01, 1.018123e+00, 1.425480e+00, -1.192480e+00, 2.690969e+00, -2.555880e-01, 1.338837e-10, 4.129912e-10, 1.920805e-10, 1.729020e-10, 4.164951e+01, 8.902140e-02
2.532000e+08, 3.307634e-02, 1.326549e-02, 1.013291e-01, 1.018002e+00, 1.422283e+00, -1.202340e+00, 2.686382e+00, -2.597162e-01, 1.322791e-10, 4.087036e-10, 1.941225e-10, 1.726253e-10, 4.167341e+01, 8.978117e-02
2.570000e+08, 3.352887e-02, 1.343666e-02, 1.012407e-01, 1.017882e+00, 1.419125e+00, -1.212099e+00, 2.681748e+00, -2.638378e-01, 1.307302e-10, 4.045898e-10, 1.961019e-10, 1.723573e-10, 4.169772e+01, 9.054549e-02
2.608000e+08, 3.397932e-02, 1.360710e-02, 1.011514e-01, 1.017761e+00, 1.416004e+00, -1.221759e+00, 2.677065e+00, -2.679531e-01, 1.292353e-10, 4.006416e-10, 1.980225e-10, 1.720974e-10, 4.172243e+01, 9.131393e-02
2.646000e+08, 3.442765e-02, 1.377683e-02, 1.010610e-01, 1.017640e+00, 1.412918e+00, -1.231324e+00, 2.672337e+00, -2.720621e-01, 1.277931e-10, 3.968512e-10, 1.998877e-10, 1.718453e-10, 4.174754e+01, 9.208608e-02
2.684000e+08, 3.487381e-02, 1.394586e-02, 1.009696e-01, 1.017520e+00, 1.409867e+00, -1.240800e+00, 2.667565e+00, -2.761651e-01, 1.264022e-10, 3.932111e-10, 2.017007e-10, 1.716007e-10, 4.177306e+01, 9.286152e-02
2.722000e+08, 3.531776e-02, 1.411423e-02, 1.008771e-01, 1.017399e+00, 1.406849e+00, -1.250188e+00, 2.662749e+00, -2.802622e-01, 1.250613e-10, 3.897142e-10, 2.034646e-10, 1.713632e-10, 4.179898e+01, 9.363989e-02
2.760000e+08, 3.575948e-02, 1.428195e-02, 1.007834e-01, 1.017278e+00, 1.403863e+00, -1.259493e+00, 2.657891e+00, -2.843537e-01, 1.237694e-10, 3.863537e-10, 2.051822e-10, 1.711325e-10, 4.182531e+01, 9.442079e-02
2.798000e+08, 3.619890e-02, 1.444905e-02, 1.006885e-01, 1.017158e+00, 1.400908e+00, -1.268718e+00, 2.652992e+00, -2.884397e-01, 1.225255e-10, 3.831229e-10, 2.068562e-10, 1.709083e-10, 4.185206e+01, 9.520389e-02
2.836000e+08, 3.663601e-02, 1.461554e-02, 1.005924e-01, 1.017038e+00, 1.397982e+00, -1.277865e+00, 2.648053e+00, -2.925203e-01, 1.213286e-10, 3.800158e-10, 2.084890e-10, 1.706904e-10, 4.187921e+01, 9.598883e-02
2.874000e+08, 3.707075e-02, 1.478145e-02, 1.004950e-01, 1.016918e+00, 1.395085e+00, -1.286938e+00, 2.643075e+00, -2.965957e-01, 1.201778e-10, 3.770263e-10, 2.100829e-10, 1.704785e-10, 4.190677e+01, 9.677529e-02
2.912000e+08, 3.750309e-02, 1.494677e-02, 1.003964e-01, 1.016798e+00, 1.392216e+00, -1.295940e+00, 2.638059e+00, -3.006661e-01, 1.190725e-10, 3.741489e-10, 2.116400e-10, 1.702724e-10, 4.193475e+01, 9.756295e-02
2.950000e+08, 3.793300e-02, 1.511154e-02, 1.002964e-01, 1.016679e+00, 1.389373e+00, -1.304873e+00, 2.633006e+00, -3.047316e-01, 1.180119e-10, 3.713781e-10, 2.131625e-10, 1.700719e-10, 4.196314e+01, 9.835150e-02
2.988000e+08, 3.836043e-02, 1.527576e-02, 1.001951e-01, 1.016560e+00, 1.386555e+00, -1.313740e+00, 2.627917e+00, -3.087922e-01, 1.169953e-10, 3.687088e-10, 2.146522e-10, 1.698767e-10, 4.199194e+01, 9.914064e-02
3.026000e+08, 3.878535e-02, 1.543945e-02, 1.000925e-01, 1.016441e+00, 1.383762e+00, -1.322544e+00, 2.622792e+00, -3.128482e-01, 1.160221e-10, 3.661361e-10, 2.161110e-10, 1.696868e-10, 4.202116e+01, 9.993008e-02
3.064000e+08, 3.920773e-02, 1.560262e-02, 9.998844e-02, 1.016323e+00, 1.380992e+00, -1.331286e+00, 2.617632e+00, -3.168997e-01, 1.150917e-10, 3.636554e-10, 2.175404e-10, 1.695018e-10, 4.205080e+01, 1.007196e-01
3.102000e+08, 3.962753e-02, 1.576528e-02, 9.988300e-02, 1.016205e+00, 1.378244e+00, -1.339968e+00, 2.612438e+00, -3.209467e-01, 1.142036e-10, 3.612623e-10, 2.189421e-10, 1.693217e-10, 4.208085e+01, 1.015088e-01
3.140000e+08, 4.004472e-02, 1.592744e-02, 9.977612e-02, 1.016088e+00, 1.375517e+00, -1.348594e+00, 2.607210e+00, -3.249894e-01, 1.133571e-10, 3.589526e-10, 2.203176e-10, 1.691462e-10, 4.211132e+01, 1.022975e-01
3.178000e+08, 4.045926e-02, 1.608910e-02, 9.966780e-02, 1.015972e+00, 1.372810e+00, -1.357164e+00, 2.601950e+00, -3.290280e-01, 1.125519e-10, 3.567224e-10, 2.216684e-10, 1.689753e-10, 4.214221e+01, 1.030855e-01
3.216000e+08, 4.087113e-02, 1.625029e-02, 9.955800e-02, 1.015856e+00, 1.370123e+00, -1.365681e+00, 2.596657e+00, -3.330625e-01, 1.117873e-10, 3.545678e-10, 2.229956e-10, 1.688089e-10, 4.217352e+01, 1.038724e-01
3.254000e+08, 4.128028e-02, 1.641100e-02, 9.944672e-02, 1.015741e+00, 1.367454e+00, -1.374147e+00, 2.591333e+00, -3.370930e-01, 1.110630e-10, 3.524852e-10, 2.243007e-10, 1.686467e-10, 4.220524e+01, 1.046581e-01
3.292000e+08, 4.168670e-02, 1.657124e-02, 9.933393e-02, 1.015626e+00, 1.364802e+00, -1.382563e+00, 2.585978e+00, -3.411196e-01, 1.103785e-10, 3.504712e-10, 2.255847e-10, 1.684886e-10, 4.223739e+01, 1.054423e-01
3.330000e+08, 4.209035e-02, 1.673102e-02, 9.921962e-02, 1.015513e+00, 1.362167e+00, -1.390931e+00, 2.580592e+00, -3.451424e-01, 1.097332e-10, 3.485226e-10, 2.268489e-10, 1.683346e-10, 4.226995e+01, 1.062248e-01
3.368000e+08, 4.249121e-02, 1.689035e-02, 9.910378e-02, 1.015400e+00, 1.359547e+00, -1.399252e+00, 2.575175e+00, -3.491616e-01, 1.091268e-10, 3.466363e-10, 2.280943e-10, 1.681845e-10, 4.230294e+01, 1.070053e-01
3.406000e+08, 4.288924e-02, 1.704923e-02, 9.898638e-02, 1.015288e+00, 1.356941e+00, -1.407529e+00, 2.569729e+00, -3.531772e-01, 1.085588e-10, 3.448094e-10, 2.293219e-10, 1.680383e-10, 4.233634e+01, 1.077837e-01
3.444000e+08, 4.328443e-02, 1.720766e-02, 9.886743e-02, 1.015176e+00, 1.354350e+00, -1.415761e+00, 2.564254e+00, -3.571893e-01, 1.080287e-10, 3.430390e-10, 2.305327e-10, 1.678958e-10, 4.237017e+01, 1.085597e-01
3.482000e+08, 4.367675e-02, 1.736565e-02, 9.874689e-02, 1.015066e+00, 1.351770e+00, -1.423952e+00, 2.558750e+00, -3.611980e-01, 1.075360e-10, 3.413225e-10, 2.317276e-10, 1.677569e-10, 4.240441e+01, 1.093331e-01
3.520000e+08, 4.406617e-02, 1.752321e-02, 9.862477e-02, 1.014956e+00, 1.349203e+00, -1.432101e+00, 2.553217e+00, -3.652034e-01, 1.070803e-10, 3.396574e-10, 2.329075e-10, 1.676216e-10, 4.243907e+01, 1.101038e-01
3.558000e+08, 4.445268e-02, 1.768033e-02, 9.850106e-02, 1.014847e+00, 1.346646e+00, -1.440211e+00, 2.547656e+00, -3.692055e-01, 1.066611e-10, 3.380414e-10, 2.340732e-10, 1.674898e-10, 4.247416e+01, 1.108715e-01
3.596000e+08, 4.483625e-02, 1.783703e-02, 9.837573e-02, 1.014740e+00, 1.344099e+00, -1.448282e+00, 2.542067e+00, -3.732045e-01, 1.062779e-10, 3.364720e-10, 2.352255e-10, 1.673613e-10, 4.250966e+01, 1.116359e-01
3.634000e+08, 4.521687e-02, 1.799330e-02, 9.824879e-02, 1.014633e+00, 1.341562e+00, -1.456316e+00, 2.536451e+00, -3.772005e-01, 1.059302e-10, 3.349472e-10, 2.363652e-10, 1.672362e-10, 4.254558e+01, 1.123971e-01
3.672000e+08, 4.559451e-02, 1.814915e-02, 9.812021e-02, 1.014527e+00, 1.339033e+00, -1.464313e+00, 2.530808e+00, -3.811934e-01, 1.056174e-10, 3.334649e-10, 2.374930e-10, 1.671143e-10, 4.258192e+01, 1.131546e-01
3.710000e+08, 4.596916e-02, 1.830457e-02, 9.799001e-02, 1.014422e+00, 1.336511e+00, -1.472275e+00, 2.525137e+00, -3.851835e-01, 1.053392e-10, 3.320231e-10, 2.386095e-10, 1.669955e-10, 4.261868e+01, 1.139085e-01
3.748000e+08, 4.634081e-02, 1.845958e-02, 9.785816e-02, 1.014318e+00, 1.333996e+00, -1.480202e+00, 2.519440e+00, -3.891707e-01, 1.050949e-10, 3.306201e-10, 2.397155e-10, 1.668799e-10, 4.265585e+01, 1.146584e-01
3.786000e+08, 4.670943e-02, 1.861416e-02, 9.772466e-02, 1.014216e+00, 1.331487e+00, -1.488096e+00, 2.513717e+00, -3.931551e-01, 1.048840e-10, 3.292539e-10, 2.408116e-10, 1.667673e-10, 4.269345e+01, 1.154042e-01
3.824000e+08, 4.707503e-02, 1.876833e-02, 9.758951e-02, 1.014114e+00, 1.328982e+00, -1.495957e+00, 2.507967e+00, -3.971369e-01, 1.047059e-10, 3.279230e-10, 2.418984e-10, 1.666576e-10, 4.273145e+01, 1.161458e-01
3.862000e+08, 4.743758e-02, 1.892209e-02, 9.745270e-02, 1.014013e+00, 1.326482e+00, -1.503787e+00, 2.502191e+00, -4.011160e-01, 1.045601e-10, 3.266256e-10, 2.429765e-10, 1.665509e-10, 4.276988e+01, 1.168829e-01
3.900000e+08, 4.779707e-02, 1.907543e-02, 9.731422e-02, 1.013914e+00, 1.323986e+00, -1.511586e+00, 2.496390e+00, -4.050926e-01, 1.044459e-10, 3.253604e-10, 2.440464e-10, 1.664470e-10, 4.280872e+01, 1.176154e-01
3.938000e+08, 4.815351e-02, 1.922835e-02, 9.717407e-02, 1.013816e+00, 1.321492e+00, -1.519354e+00, 2.490563e+00, -4.090667e-01, 1.043628e-10, 3.241258e-10, 2.451087e-10, 1.663459e-10, 4.284798e+01, 1.183432e-01
3.976000e+08, 4.850688e-02, 1.938087e-02, 9.703225e-02, 1.013719e+00, 1.319000e+00, -1.527093e+00, 2.484711e+00, -4.130384e-01, 1.043101e-10, 3.229205e-10, 2.461639e-10, 1.662476e-10, 4.288764e+01, 1.190661e-01
4.014000e+08, 4.885717e-02, 1.953296e-02, 9.688875e-02, 1.013623e+00, 1.316510e+00, -1.534803e+00, 2.478834e+00, -4.170077e-01, 1.042873e-10, 3.217431e-10, 2.472125e-10, 1.661519e-10, 4.292773e+01, 1.197838e-01
4.052000e+08, 4.920438e-02, 1.968465e-02, 9.674357e-02, 1.013528e+00, 1.314020e+00, -1.542485e+00, 2.472931e+00, -4.209748e-01, 1.042936e-10, 3.205923e-10, 2.482550e-10, 1.660589e-10, 4.296822e+01, 1.204964e-01
4.090000e+08, 4.954851e-02, 1.983592e-02, 9.659671e-02, 1.013434e+00, 1.311530e+00, -1.550139e+00, 2.467004e+00, -4.249396e-01, 1.043284e-10, 3.194671e-10, 2.492919e-10, 1.659685e-10, 4.300912e+01, 1.212035e-01
4.128000e+08, 4.988956e-02, 1.998678e-02, 9.644817e-02, 1.013342e+00, 1.309039e+00, -1.557767e+00, 2.461052e+00, -4.289023e-01, 1.043911e-10, 3.183662e-10, 2.503235e-10, 1.658806e-10, 4.305043e+01, 1.219052e-01
4.166000e+08, 5.022752e-02, 2.013722e-02, 9.629794e-02, 1.013251e+00, 1.306546e+00, -1.565368e+00, 2.455075e+00, -4.328629e-01, 1.044810e-10, 3.172886e-10, 2.513504e-10, 1.657952e-10, 4.309215e+01, 1.226011e-01
4.204000e+08, 5.056240e-02, 2.028725e-02, 9.614602e-02, 1.013161e+00, 1.304052e+00, -1.572944e+00, 2.449074e+00, -4.368214e-01, 1.045974e-10, 3.162333e-10, 2.523730e-10, 1.657122e-10, 4.313428e+01, 1.232912e-01
4.242000e+08, 5.089420e-02, 2.043686e-02, 9.599242e-02, 1.013072e+00, 1.301554e+00, -1.580494e+00, 2.443048e+00, -4.407780e-01, 1.047396e-10, 3.151992e-10, 2.533916e-10, 1.656316e-10, 4.317681e+01, 1.239754e-01
4.280000e+08, 5.122292e-02, 2.058606e-02, 9.583714e-02, 1.012984e+00, 1.299054e+00, -1.588020e+00, 2.436998e+00, -4.447326e-01, 1.049069e-10, 3.141854e-10, 2.544067e-10, 1.655534e-10, 4.321975e+01, 1.246534e-01
4.318000e+08, 5.154857e-02, 2.073484e-02, 9.568017e-02, 1.012898e+00, 1.296549e+00, -1.595522e+00, 2.430924e+00, -4.486854e-01, 1.050986e-10, 3.131910e-10, 2.554187e-10, 1.654775e-10, 4.326309e+01, 1.253253e-01
4.356000e+08, 5.187115e-02, 2.088320e-02, 9.552151e-02, 1.012813e+00, 1.294039e+00, -1.602999e+00, 2.424825e+00, -4.526364e-01, 1.053139e-10, 3.122152e-10, 2.564278e-10, 1.654039e-10, 4.330683e+01, 1.259907e-01
4.394000e+08, 5.219067e-02, 2.103114e-02, 9.536118e-02, 1.012729e+00, 1.291525e+00, -1.610454e+00, 2.418703e+00, -4.565856e-01, 1.055523e-10, 3.112571e-10, 2.574346e-10, 1.653325e-10, 4.335097e+01, 1.266496e-01
4.432000e+08, 5.250715e-02, 2.117866e-02, 9.519916e-02, 1.012647e+00, 1.289005e+00, -1.617885e+00, 2.412556e+00, -4.605331e-01, 1.058128e-10, 3.103160e-10, 2.584393e-10, 1.652633e-10, 4.339551e+01, 1.273019e-01
4.470000e+08, 5.282058e-02, 2.132575e-02, 9.503547e-02, 1.012566e+00, 1.286478e+00, -1.625295e+00, 2.406386e+00, -4.644789e-01, 1.060949e-10, 3.093912e-10, 2.594423e-10, 1.651962e-10, 4.344045e+01, 1.279475e-01
4.508000e+08, 5.313097e-02, 2.147243e-02, 9.487011e-02, 1.012486e+00, 1.283945e+00, -1.632682e+00, 2.400191e+00, -4.684231e-01, 1.063978e-10, 3.084819e-10, 2.604439e-10, 1.651312e-10, 4.348578e+01, 1.285861e-01
4.546000e+08, 5.343835e-02, 2.161868e-02, 9.470307e-02, 1.012407e+00, 1.281405e+00, -1.640047e+00, 2.393973e+00, -4.723658e-01, 1.067207e-10, 3.075874e-10, 2.614445e-10, 1.650683e-10, 4.353150e+01, 1.292177e-01
4.584000e+08, 5.374272e-02, 2.176450e-02, 9.453437e-02, 1.012330e+00, 1.278857e+00, -1.647391e+00, 2.387731e+00, -4.763070e-01, 1.070630e-10, 3.067072e-10, 2.624444e-10, 1.650075e-10, 4.357761e+01, 1.298422e-01
4.622000e+08, 5.404410e-02, 2.190990e-02, 9.436401e-02, 1.012254e+00, 1.276301e+00, -1.654714e+00, 2.381464e+00, -4.802468e-01, 1.074238e-10, 3.058406e-10, 2.634438e-10, 1.649486e-10, 4.362412e+01, 1.304594e-01
4.660000e+08, 5.434250e-02, 2.205486e-02, 9.419199e-02, 1.012180e+00, 1.273736e+00, -1.662016e+00, 2.375174e+00, -4.841851e-01, 1.078025e-10, 3.049870e-10, 2.644431e-10, 1.648917e-10, 4.367101e+01, 1.310693e-01
4.698000e+08, 5.463793e-02, 2.219939e-02, 9.401831e-02, 1.012106e+00, 1.271162e+00, -1.669298e+00, 2.368861e+00, -4.881221e-01, 1.081983e-10, 3.041458e-10, 2.654427e-10, 1.648367e-10, 4.371828e+01, 1.316717e-01
4.736000e+08, 5.493042e-02, 2.234350e-02, 9.384299e-02, 1.012034e+00, 1.268578e+00, -1.676560e+00, 2.362523e+00, -4.920577e-01, 1.086106e-10, 3.033166e-10, 2.664427e-10, 1.647836e-10, 4.376595e+01, 1.322664e-01
4.774000e+08, 5.521998e-02, 2.248716e-02, 9.366603e-02, 1.011963e+00, 1.265985e+00, -1.683802e+00, 2.356161e+00, -4.959921e-01, 1.090386e-10, 3.024988e-10, 2.674434e-10, 1.647323e-10, 4.381399e+01, 1.328535e-01
4.812000e+08, 5.550662e-02, 2.263039e-02, 9.348743e-02, 1.011894e+00, 1.263382e+00, -1.691024e+00, 2.349776e+00, -4.999253e-01, 1.094815e-10, 3.016919e-10, 2.684453e-10, 1.646829e-10, 4.386241e+01, 1.334327e-01
4.850000e+08, 5.579037e-02, 2.277318e-02, 9.330721e-02, 1.011826e+00, 1.260768e+00, -1.698228e+00, 2.343366e+00, -5.038573e-01, 1.099388e-10, 3.008955e-10, 2.694485e-10, 1.646352e-10, 4.391120e+01, 1.340040e-01
4.888000e+08, 5.607125e-02, 2.291554e-02, 9.312536e-02, 1.011759e+00, 1.258143e+00, -1.705412e+00, 2.336933e+00, -5.077881e-01, 1.104096e-10, 3.001091e-10, 2.704533e-10, 1.645893e-10, 4.396038e+01, 1.345672e-01
4.926000e+08, 5.634927e-02, 2.305745e-02, 9.294190e-02, 1.011693e+00, 1.255507e+00, -1.712577e+00, 2.330476e+00, -5.117179e-01, 1.108933e-10, 2.993323e-10, 2.714599e-10, 1.645451e-10, 4.400992e+01, 1.351223e-01
4.964000e+08, 5.662446e-02, 2.319891e-02, 9.275683e-02, 1.011629e+00, 1.252859e+00, -1.719724e+00, 2.323994e+00, -5.156466e-01, 1.113893e-10, 2.985647e-10, 2.724687e-10, 1.645026e-10, 4.405984e+01, 1.356692e-01
5.002000e+08, 5.689683e-02, 2.333993e-02, 9.257016e-02, 1.011566e+00, 1.250200e+00, -1.726853e+00, 2.317489e+00, -5.195742e-01, 1.118968e-10, 2.978059e-10, 2.734800e-10, 1.644618e-10, 4.411012e+01, 1.362076e-01
5.040000e+08, 5.716642e-02, 2.348051e-02, 9.238191e-02, 1.011504e+00, 1.247528e+00, -1.733963e+00, 2.310959e+00, -5.235009e-01, 1.124152e-10, 2.970556e-10, 2.744938e-10, 1.644225e-10, 4.416077e+01, 1.367377e-01
5.078000e+08, 5.743323e-02, 2.362063e-02, 9.219207e-02, 1.011444e+00, 1.244844e+00, -1.741056e+00, 2.304405e+00, -5.274267e-01, 1.129438e-10, 2.963133e-10, 2.755106e-10, 1.643849e-10, 4.421178e+01, 1.372592e-01
5.116000e+08, 5.769730e-02, 2.376031e-02, 9.200066e-02, 1.011385e+00, 1.242147e+00, -1.748131e+00, 2.297827e+00, -5.313516e-01, 1.134820e-10, 2.955787e-10, 2.765306e-10, 1.643488e-10, 4.426315e+01, 1.377720e-01
5.154000e+08, 5.795864e-02, 2.389953e-02, 9.180769e-02, 1.011327e+00, 1.239438e+00, -1.755188e+00, 2.291225e+00, -5.352756e-01, 1.140292e-10, 2.948516e-10, 2.775540e-10, 1.643142e-10, 4.431488e+01, 1.382761e-01
5.192000e+08, 5.821729e-02, 2.403829e-02, 9.161316e-02, 1.011270e+00, 1.236715e+00, -1.762228e+00, 2.284598e+00, -5.391988e-01, 1.145848e-10, 2.941315e-10, 2.785810e-10, 1.642811e-10, 4.436696e+01, 1.387714e-01
5.230000e+08, 5.847326e-02, 2.417660e-02, 9.141710e-02, 1.011215e+00, 1.233979e+00, -1.769250e+00, 2.277946e+00, -5.431212e-01, 1.151481e-10, 2.934183e-10, 2.796119e-10, 1.642495e-10, 4.441939e+01, 1.392577e-01
5.268000e+08, 5.872658e-02, 2.431445e-02, 9.121949e-02, 1.011161e+00, 1.231230e+00, -1.776256e+00, 2.271270e+00, -5.470428e-01, 1.157187e-10, 2.927116e-10, 2.806470e-10, 1.642194e-10, 4.447218e+01, 1.397350e-01
5.306000e+08, 5.897727e-02, 2.445184e-02, 9.102037e-02, 1.011108e+00, 1.228467e+00, -1.783245e+00, 2.264569e+00, -5.509637e-01, 1.162958e-10, 2.920111e-10, 2.816864e-10, 1.641906e-10, 4.452531e+01, 1.402033e-01
5.344000e+08, 5.922535e-02, 2.458877e-02, 9.081974e-02, 1.011056e+00, 1.225690e+00, -1.790217e+00, 2.257844e+00, -5.548840e-01, 1.168789e-10, 2.913167e-10, 2.827305e-10, 1.641632e-10, 4.457879e+01, 1.406623e-01
5.382000e+08, 5.947086e-02, 2.472523e-02, 9.061761e-02, 1.011006e+00, 1.222900e+00, -1.797173e+00, 2.251093e+00, -5.588035e-01, 1.174676e-10, 2.906279e-10, 2.837794e-10, 1.641372e-10, 4.463260e+01, 1.411121e-01
5.420000e+08, 5.971382e-02, 2.486123e-02, 9.041399e-02, 1.010957e+00, 1.220095e+00, -1.804112e+00, 2.244318e+00, -5.627225e-01, 1.180612e-10, 2.899447e-10, 2.848333e-10, 1.641124e-10, 4.468676e+01, 1.415524e-01
5.458000e+08, 5.995424e-02, 2.499676e-02, 9.020889e-02, 1.010909e+00, 1.217276e+00, -1.811034e+00, 2.237517e+00, -5.666409e-01, 1.186593e-10, 2.892668e-10, 2.858926e-10, 1.640890e-10, 4.474125e+01, 1.419834e-01
5.496000e+08, 6.019217e-02, 2.513182e-02, 9.000233e-02, 1.010862e+00, 1.214443e+00, -1.817941e+00, 2.230691e+00, -5.705587e-01, 1.192613e-10, 2.885939e-10, 2.869574e-10, 1.640669e-10, 4.479607e+01, 1.424048e-01
